Freq.	V(n003)/V(n001)
1.00000000000000e+000	(1.34419499342207e+001dB,1.79999695364146e+002°)
1.02329299228075e+000	(1.34419499342187e+001dB,1.79999688268265e+002°)
1.04712854805090e+000	(1.34419499342166e+001dB,1.79999681007100e+002°)
1.07151930523761e+000	(1.34419499342144e+001dB,1.79999673576801e+002°)
1.09647819614318e+000	(1.34419499342122e+001dB,1.79999665973428e+002°)
1.12201845430196e+000	(1.34419499342097e+001dB,1.79999658192950e+002°)
1.14815362149688e+000	(1.34419499342072e+001dB,1.79999650231241e+002°)
1.17489755493953e+000	(1.34419499342046e+001dB,1.79999642084080e+002°)
1.20226443461741e+000	(1.34419499342018e+001dB,1.79999633747147e+002°)
1.23026877081238e+000	(1.34419499341990e+001dB,1.79999625216022e+002°)
1.25892541179417e+000	(1.34419499341959e+001dB,1.79999616486182e+002°)
1.28824955169313e+000	(1.34419499341928e+001dB,1.79999607552997e+002°)
1.31825673855641e+000	(1.34419499341895e+001dB,1.79999598411732e+002°)
1.34896288259165e+000	(1.34419499341860e+001dB,1.79999589057540e+002°)
1.38038426460288e+000	(1.34419499341823e+001dB,1.79999579485460e+002°)
1.41253754462275e+000	(1.34419499341785e+001dB,1.79999569690418e+002°)
1.44543977074593e+000	(1.34419499341745e+001dB,1.79999559667221e+002°)
1.47910838816821e+000	(1.34419499341704e+001dB,1.79999549410552e+002°)
1.51356124843621e+000	(1.34419499341660e+001dB,1.79999538914976e+002°)
1.54881661891248e+000	(1.34419499341614e+001dB,1.79999528174926e+002°)
1.58489319246111e+000	(1.34419499341566e+001dB,1.79999517184708e+002°)
1.62181009735893e+000	(1.34419499341516e+001dB,1.79999505938495e+002°)
1.65958690743756e+000	(1.34419499341464e+001dB,1.79999494430325e+002°)
1.69824365246174e+000	(1.34419499341409e+001dB,1.79999482654094e+002°)
1.73780082874937e+000	(1.34419499341351e+001dB,1.79999470603560e+002°)
1.77827941003892e+000	(1.34419499341291e+001dB,1.79999458272333e+002°)
1.81970085860998e+000	(1.34419499341228e+001dB,1.79999445653874e+002°)
1.86208713666287e+000	(1.34419499341161e+001dB,1.79999432741494e+002°)
1.90546071796325e+000	(1.34419499341092e+001dB,1.79999419528346e+002°)
1.94984459975804e+000	(1.34419499341020e+001dB,1.79999406007424e+002°)
1.99526231496888e+000	(1.34419499340944e+001dB,1.79999392171560e+002°)
2.04173794466953e+000	(1.34419499340864e+001dB,1.79999378013417e+002°)
2.08929613085404e+000	(1.34419499340781e+001dB,1.79999363525488e+002°)
2.13796208950223e+000	(1.34419499340694e+001dB,1.79999348700092e+002°)
2.18776162394955e+000	(1.34419499340602e+001dB,1.79999333529369e+002°)
2.23872113856834e+000	(1.34419499340507e+001dB,1.79999318005273e+002°)
2.29086765276777e+000	(1.34419499340406e+001dB,1.79999302119575e+002°)
2.34422881531992e+000	(1.34419499340302e+001dB,1.79999285863852e+002°)
2.39883291901949e+000	(1.34419499340192e+001dB,1.79999269229484e+002°)
2.45470891568503e+000	(1.34419499340077e+001dB,1.79999252207652e+002°)
2.51188643150958e+000	(1.34419499339957e+001dB,1.79999234789331e+002°)
2.57039578276886e+000	(1.34419499339830e+001dB,1.79999216965285e+002°)
2.63026799189538e+000	(1.34419499339698e+001dB,1.79999198726063e+002°)
2.69153480392691e+000	(1.34419499339560e+001dB,1.79999180061995e+002°)
2.75422870333816e+000	(1.34419499339416e+001dB,1.79999160963186e+002°)
2.81838293126445e+000	(1.34419499339264e+001dB,1.79999141419508e+002°)
2.88403150312660e+000	(1.34419499339105e+001dB,1.79999121420599e+002°)
2.95120922666638e+000	(1.34419499338939e+001dB,1.79999100955856e+002°)
3.01995172040201e+000	(1.34419499338765e+001dB,1.79999080014428e+002°)
3.09029543251359e+000	(1.34419499338583e+001dB,1.79999058585211e+002°)
3.16227766016837e+000	(1.34419499338392e+001dB,1.79999036656843e+002°)
3.23593656929628e+000	(1.34419499338192e+001dB,1.79999014217699e+002°)
3.31131121482591e+000	(1.34419499337983e+001dB,1.79998991255879e+002°)
3.38844156139202e+000	(1.34419499337764e+001dB,1.79998967759210e+002°)
3.46736850452531e+000	(1.34419499337535e+001dB,1.79998943715233e+002°)
3.54813389233575e+000	(1.34419499337294e+001dB,1.79998919111200e+002°)
3.63078054770101e+000	(1.34419499337043e+001dB,1.79998893934066e+002°)
3.71535229097172e+000	(1.34419499336780e+001dB,1.79998868170481e+002°)
3.80189396320560e+000	(1.34419499336504e+001dB,1.79998841806784e+002°)
3.89045144994280e+000	(1.34419499336215e+001dB,1.79998814828999e+002°)
3.98107170553496e+000	(1.34419499335913e+001dB,1.79998787222820e+002°)
4.07380277804112e+000	(1.34419499335596e+001dB,1.79998758973610e+002°)
4.16869383470335e+000	(1.34419499335264e+001dB,1.79998730066392e+002°)
4.26579518801592e+000	(1.34419499334917e+001dB,1.79998700485838e+002°)
4.36515832240165e+000	(1.34419499334554e+001dB,1.79998670216265e+002°)
4.46683592150962e+000	(1.34419499334173e+001dB,1.79998639241623e+002°)
4.57088189614874e+000	(1.34419499333774e+001dB,1.79998607545488e+002°)
4.67735141287197e+000	(1.34419499333357e+001dB,1.79998575111056e+002°)
4.78630092322637e+000	(1.34419499332920e+001dB,1.79998541921129e+002°)
4.89778819368445e+000	(1.34419499332462e+001dB,1.79998507958109e+002°)
5.01187233627271e+000	(1.34419499331983e+001dB,1.79998473203989e+002°)
5.12861383991364e+000	(1.34419499331481e+001dB,1.79998437640341e+002°)
5.24807460249771e+000	(1.34419499330956e+001dB,1.79998401248310e+002°)
5.37031796370252e+000	(1.34419499330405e+001dB,1.79998364008599e+002°)
5.49540873857623e+000	(1.34419499329829e+001dB,1.79998325901464e+002°)
5.62341325190348e+000	(1.34419499329226e+001dB,1.79998286906700e+002°)
5.75439937337156e+000	(1.34419499328594e+001dB,1.79998247003630e+002°)
5.88843655355588e+000	(1.34419499327933e+001dB,1.79998206171100e+002°)
6.02559586074356e+000	(1.34419499327240e+001dB,1.79998164387457e+002°)
6.16595001861481e+000	(1.34419499326515e+001dB,1.79998121630548e+002°)
6.30957344480192e+000	(1.34419499325755e+001dB,1.79998077877703e+002°)
6.45654229034654e+000	(1.34419499324960e+001dB,1.79998033105723e+002°)
6.60693448007594e+000	(1.34419499324127e+001dB,1.79997987290870e+002°)
6.76082975391980e+000	(1.34419499323255e+001dB,1.79997940408852e+002°)
6.91830970918935e+000	(1.34419499322342e+001dB,1.79997892434811e+002°)
7.07945784384136e+000	(1.34419499321385e+001dB,1.79997843343311e+002°)
7.24435960074988e+000	(1.34419499320384e+001dB,1.79997793108324e+002°)
7.41310241300916e+000	(1.34419499319336e+001dB,1.79997741703213e+002°)
7.58577575029182e+000	(1.34419499318238e+001dB,1.79997689100723e+002°)
7.76247116628690e+000	(1.34419499317088e+001dB,1.79997635272964e+002°)
7.94328234724279e+000	(1.34419499315884e+001dB,1.79997580191395e+002°)
8.12830516164097e+000	(1.34419499314624e+001dB,1.79997523826812e+002°)
8.31763771102669e+000	(1.34419499313304e+001dB,1.79997466149329e+002°)
8.51138038202374e+000	(1.34419499311922e+001dB,1.79997407128365e+002°)
8.70963589956078e+000	(1.34419499310474e+001dB,1.79997346732626e+002°)
8.91250938133743e+000	(1.34419499308959e+001dB,1.79997284930090e+002°)
9.12010839355907e+000	(1.34419499307372e+001dB,1.79997221687987e+002°)
9.33254300796988e+000	(1.34419499305710e+001dB,1.79997156972787e+002°)
9.54992586021433e+000	(1.34419499303970e+001dB,1.79997090750176e+002°)
9.77237220955808e+000	(1.34419499302148e+001dB,1.79997022985042e+002°)
9.99999999999997e+000	(1.34419499300240e+001dB,1.79996953641456e+002°)
1.02329299228075e+001	(1.34419499298242e+001dB,1.79996882682650e+002°)
1.04712854805090e+001	(1.34419499296150e+001dB,1.79996810071001e+002°)
1.07151930523760e+001	(1.34419499293960e+001dB,1.79996735768009e+002°)
1.09647819614318e+001	(1.34419499291666e+001dB,1.79996659734279e+002°)
1.12201845430196e+001	(1.34419499289264e+001dB,1.79996581929495e+002°)
1.14815362149688e+001	(1.34419499286749e+001dB,1.79996502312405e+002°)
1.17489755493953e+001	(1.34419499284115e+001dB,1.79996420840795e+002°)
1.20226443461741e+001	(1.34419499281358e+001dB,1.79996337471467e+002°)
1.23026877081238e+001	(1.34419499278470e+001dB,1.79996252160218e+002°)
1.25892541179416e+001	(1.34419499275446e+001dB,1.79996164861815e+002°)
1.28824955169313e+001	(1.34419499272280e+001dB,1.79996075529971e+002°)
1.31825673855640e+001	(1.34419499268964e+001dB,1.79995984117321e+002°)
1.34896288259165e+001	(1.34419499265492e+001dB,1.79995890575396e+002°)
1.38038426460288e+001	(1.34419499261857e+001dB,1.79995794854601e+002°)
1.41253754462275e+001	(1.34419499258050e+001dB,1.79995696904182e+002°)
1.44543977074592e+001	(1.34419499254064e+001dB,1.79995596672204e+002°)
1.47910838816820e+001	(1.34419499249890e+001dB,1.79995494105523e+002°)
1.51356124843620e+001	(1.34419499245519e+001dB,1.79995389149758e+002°)
1.54881661891248e+001	(1.34419499240942e+001dB,1.79995281749259e+002°)
1.58489319246111e+001	(1.34419499236150e+001dB,1.79995171847081e+002°)
1.62181009735892e+001	(1.34419499231132e+001dB,1.79995059384952e+002°)
1.65958690743755e+001	(1.34419499225877e+001dB,1.79994944303244e+002°)
1.69824365246174e+001	(1.34419499220374e+001dB,1.79994826540938e+002°)
1.73780082874937e+001	(1.34419499214613e+001dB,1.79994706035596e+002°)
1.77827941003892e+001	(1.34419499208579e+001dB,1.79994582723324e+002°)
1.81970085860998e+001	(1.34419499202262e+001dB,1.79994456538740e+002°)
1.86208713666286e+001	(1.34419499195646e+001dB,1.79994327414939e+002°)
1.90546071796324e+001	(1.34419499188719e+001dB,1.79994195283459e+002°)
1.94984459975804e+001	(1.34419499181465e+001dB,1.79994060074242e+002°)
1.99526231496887e+001	(1.34419499173870e+001dB,1.79993921715596e+002°)
2.04173794466952e+001	(1.34419499165917e+001dB,1.79993780134165e+002°)
2.08929613085403e+001	(1.34419499157588e+001dB,1.79993635254878e+002°)
2.13796208950222e+001	(1.34419499148867e+001dB,1.79993487000918e+002°)
2.18776162394954e+001	(1.34419499139736e+001dB,1.79993335293681e+002°)
2.23872113856833e+001	(1.34419499130173e+001dB,1.79993180052728e+002°)
2.29086765276776e+001	(1.34419499120161e+001dB,1.79993021195748e+002°)
2.34422881531991e+001	(1.34419499109676e+001dB,1.79992858638514e+002°)
2.39883291901948e+001	(1.34419499098697e+001dB,1.79992692294836e+002°)
2.45470891568502e+001	(1.34419499087201e+001dB,1.79992522076516e+002°)
2.51188643150957e+001	(1.34419499075163e+001dB,1.79992347893302e+002°)
2.57039578276885e+001	(1.34419499062557e+001dB,1.79992169652839e+002°)
2.63026799189537e+001	(1.34419499049358e+001dB,1.79991987260623e+002°)
2.69153480392690e+001	(1.34419499035536e+001dB,1.79991800619946e+002°)
2.75422870333815e+001	(1.34419499021063e+001dB,1.79991609631849e+002°)
2.81838293126444e+001	(1.34419499005908e+001dB,1.79991414195068e+002°)
2.88403150312659e+001	(1.34419498990039e+001dB,1.79991214205980e+002°)
2.95120922666637e+001	(1.34419498973422e+001dB,1.79991009558547e+002°)
3.01995172040200e+001	(1.34419498956022e+001dB,1.79990800144263e+002°)
3.09029543251358e+001	(1.34419498937801e+001dB,1.79990585852094e+002°)
3.16227766016837e+001	(1.34419498918722e+001dB,1.79990366568418e+002°)
3.23593656929627e+001	(1.34419498898744e+001dB,1.79990142176970e+002°)
3.31131121482590e+001	(1.34419498877824e+001dB,1.79989912558774e+002°)
3.38844156139201e+001	(1.34419498855918e+001dB,1.79989677592082e+002°)
3.46736850452530e+001	(1.34419498832980e+001dB,1.79989437152314e+002°)
3.54813389233574e+001	(1.34419498808961e+001dB,1.79989191111983e+002°)
3.63078054770100e+001	(1.34419498783810e+001dB,1.79988939340637e+002°)
3.71535229097171e+001	(1.34419498757474e+001dB,1.79988681704783e+002°)
3.80189396320559e+001	(1.34419498729896e+001dB,1.79988418067819e+002°)
3.89045144994279e+001	(1.34419498701019e+001dB,1.79988148289961e+002°)
3.98107170553495e+001	(1.34419498670781e+001dB,1.79987872228169e+002°)
4.07380277804111e+001	(1.34419498639117e+001dB,1.79987589736072e+002°)
4.16869383470333e+001	(1.34419498605962e+001dB,1.79987300663888e+002°)
4.26579518801591e+001	(1.34419498571244e+001dB,1.79987004858349e+002°)
4.36515832240164e+001	(1.34419498534889e+001dB,1.79986702162613e+002°)
4.46683592150961e+001	(1.34419498496821e+001dB,1.79986392416188e+002°)
4.57088189614873e+001	(1.34419498456960e+001dB,1.79986075454841e+002°)
4.67735141287196e+001	(1.34419498415219e+001dB,1.79985751110516e+002°)
4.78630092322636e+001	(1.34419498371512e+001dB,1.79985419211241e+002°)
4.89778819368444e+001	(1.34419498325744e+001dB,1.79985079581039e+002°)
5.01187233627270e+001	(1.34419498277820e+001dB,1.79984732039832e+002°)
5.12861383991362e+001	(1.34419498227637e+001dB,1.79984376403351e+002°)
5.24807460249770e+001	(1.34419498175089e+001dB,1.79984012483032e+002°)
5.37031796370250e+001	(1.34419498120064e+001dB,1.79983640085920e+002°)
5.49540873857622e+001	(1.34419498062446e+001dB,1.79983259014564e+002°)
5.62341325190346e+001	(1.34419498002113e+001dB,1.79982869066916e+002°)
5.75439937337154e+001	(1.34419497938936e+001dB,1.79982470036220e+002°)
5.88843655355586e+001	(1.34419497872782e+001dB,1.79982061710905e+002°)
6.02559586074355e+001	(1.34419497803511e+001dB,1.79981643874471e+002°)
6.16595001861479e+001	(1.34419497730974e+001dB,1.79981216305376e+002°)
6.30957344480190e+001	(1.34419497655019e+001dB,1.79980778776917e+002°)
6.45654229034652e+001	(1.34419497575484e+001dB,1.79980331057111e+002°)
6.60693448007593e+001	(1.34419497492201e+001dB,1.79979872908570e+002°)
6.76082975391978e+001	(1.34419497404993e+001dB,1.79979404088378e+002°)
6.91830970918933e+001	(1.34419497313675e+001dB,1.79978924347961e+002°)
7.07945784384134e+001	(1.34419497218053e+001dB,1.79978433432954e+002°)
7.24435960074986e+001	(1.34419497117925e+001dB,1.79977931083066e+002°)
7.41310241300914e+001	(1.34419497013078e+001dB,1.79977417031946e+002°)
7.58577575029180e+001	(1.34419496903289e+001dB,1.79976891007037e+002°)
7.76247116628688e+001	(1.34419496788327e+001dB,1.79976352729433e+002°)
7.94328234724277e+001	(1.34419496667946e+001dB,1.79975801913732e+002°)
8.12830516164095e+001	(1.34419496541892e+001dB,1.79975238267884e+002°)
8.31763771102667e+001	(1.34419496409897e+001dB,1.79974661493038e+002°)
8.51138038202372e+001	(1.34419496271682e+001dB,1.79974071283378e+002°)
8.70963589956076e+001	(1.34419496126952e+001dB,1.79973467325969e+002°)
8.91250938133741e+001	(1.34419495975402e+001dB,1.79972849300583e+002°)
9.12010839355905e+001	(1.34419495816709e+001dB,1.79972216879536e+002°)
9.33254300796986e+001	(1.34419495650538e+001dB,1.79971569727509e+002°)
9.54992586021431e+001	(1.34419495476534e+001dB,1.79970907501374e+002°)
9.77237220955805e+001	(1.34419495294331e+001dB,1.79970229850009e+002°)
9.99999999999995e+001	(1.34419495103540e+001dB,1.79969536414115e+002°)
1.02329299228075e+002	(1.34419494903758e+001dB,1.79968826826022e+002°)
1.04712854805089e+002	(1.34419494694560e+001dB,1.79968100709498e+002°)
1.07151930523760e+002	(1.34419494475504e+001dB,1.79967357679546e+002°)
1.09647819614318e+002	(1.34419494246123e+001dB,1.79966597342201e+002°)
1.12201845430196e+002	(1.34419494005932e+001dB,1.79965819294322e+002°)
1.14815362149688e+002	(1.34419493754421e+001dB,1.79965023123378e+002°)
1.17489755493952e+002	(1.34419493491057e+001dB,1.79964208407228e+002°)
1.20226443461741e+002	(1.34419493215280e+001dB,1.79963374713898e+002°)
1.23026877081237e+002	(1.34419492926507e+001dB,1.79962521601354e+002°)
1.25892541179416e+002	(1.34419492624124e+001dB,1.79961648617264e+002°)
1.28824955169313e+002	(1.34419492307491e+001dB,1.79960755298758e+002°)
1.31825673855640e+002	(1.34419491975935e+001dB,1.79959841172189e+002°)
1.34896288259165e+002	(1.34419491628753e+001dB,1.79958905752873e+002°)
1.38038426460288e+002	(1.34419491265209e+001dB,1.79957948544839e+002°)
1.41253754462275e+002	(1.34419490884532e+001dB,1.79956969040561e+002°)
1.44543977074592e+002	(1.34419490485913e+001dB,1.79955966720694e+002°)
1.47910838816820e+002	(1.34419490068509e+001dB,1.79954941053794e+002°)
1.51356124843620e+002	(1.34419489631433e+001dB,1.79953891496037e+002°)
1.54881661891247e+002	(1.34419489173758e+001dB,1.79952817490935e+002°)
1.58489319246110e+002	(1.34419488694514e+001dB,1.79951718469035e+002°)
1.62181009735892e+002	(1.34419488192683e+001dB,1.79950593847621e+002°)
1.65958690743755e+002	(1.34419487667202e+001dB,1.79949443030403e+002°)
1.69824365246173e+002	(1.34419487116956e+001dB,1.79948265407201e+002°)
1.73780082874936e+002	(1.34419486540777e+001dB,1.79947060353624e+002°)
1.77827941003891e+002	(1.34419485937444e+001dB,1.79945827230736e+002°)
1.81970085860997e+002	(1.34419485305677e+001dB,1.79944565384718e+002°)
1.86208713666286e+002	(1.34419484644135e+001dB,1.79943274146522e+002°)
1.90546071796323e+002	(1.34419483951416e+001dB,1.79941952831514e+002°)
1.94984459975803e+002	(1.34419483226049e+001dB,1.79940600739117e+002°)
1.99526231496887e+002	(1.34419482466498e+001dB,1.79939217152431e+002°)
2.04173794466952e+002	(1.34419481671149e+001dB,1.79937801337860e+002°)
2.08929613085403e+002	(1.34419480838318e+001dB,1.79936352544718e+002°)
2.13796208950222e+002	(1.34419479966235e+001dB,1.79934870004836e+002°)
2.18776162394954e+002	(1.34419479053053e+001dB,1.79933352932150e+002°)
2.23872113856832e+002	(1.34419478096834e+001dB,1.79931800522286e+002°)
2.29086765276776e+002	(1.34419477095550e+001dB,1.79930211952135e+002°)
2.34422881531991e+002	(1.34419476047076e+001dB,1.79928586379414e+002°)
2.39883291901947e+002	(1.34419474949189e+001dB,1.79926922942222e+002°)
2.45470891568501e+002	(1.34419473799560e+001dB,1.79925220758580e+002°)
2.51188643150956e+002	(1.34419472595751e+001dB,1.79923478925966e+002°)
2.57039578276885e+002	(1.34419471335208e+001dB,1.79921696520836e+002°)
2.63026799189536e+002	(1.34419470015257e+001dB,1.79919872598132e+002°)
2.69153480392690e+002	(1.34419468633099e+001dB,1.79918006190785e+002°)
2.75422870333815e+002	(1.34419467185801e+001dB,1.79916096309197e+002°)
2.81838293126443e+002	(1.34419465670294e+001dB,1.79914141940722e+002°)
2.88403150312659e+002	(1.34419464083364e+001dB,1.79912142049125e+002°)
2.95120922666637e+002	(1.34419462421643e+001dB,1.79910095574034e+002°)
3.01995172040200e+002	(1.34419460681607e+001dB,1.79908001430377e+002°)
3.09029543251357e+002	(1.34419458859566e+001dB,1.79905858507808e+002°)
3.16227766016836e+002	(1.34419456951655e+001dB,1.79903665670117e+002°)
3.23593656929626e+002	(1.34419454953826e+001dB,1.79901421754630e+002°)
3.31131121482589e+002	(1.34419452861842e+001dB,1.79899125571587e+002°)
3.38844156139200e+002	(1.34419450671265e+001dB,1.79896775903518e+002°)
3.46736850452529e+002	(1.34419448377450e+001dB,1.79894371504592e+002°)
3.54813389233573e+002	(1.34419445975529e+001dB,1.79891911099961e+002°)
3.63078054770099e+002	(1.34419443460409e+001dB,1.79889393385078e+002°)
3.71535229097170e+002	(1.34419440826755e+001dB,1.79886817025014e+002°)
3.80189396320558e+002	(1.34419438068979e+001dB,1.79884180653740e+002°)
3.89045144994278e+002	(1.34419435181233e+001dB,1.79881482873410e+002°)
3.98107170553494e+002	(1.34419432157391e+001dB,1.79878722253620e+002°)
4.07380277804110e+002	(1.34419428991039e+001dB,1.79875897330642e+002°)
4.16869383470332e+002	(1.34419425675460e+001dB,1.79873006606658e+002°)
4.26579518801589e+002	(1.34419422203622e+001dB,1.79870048548957e+002°)
4.36515832240163e+002	(1.34419418568160e+001dB,1.79867021589129e+002°)
4.46683592150960e+002	(1.34419414761363e+001dB,1.79863924122228e+002°)
4.57088189614872e+002	(1.34419410775155e+001dB,1.79860754505927e+002°)
4.67735141287195e+002	(1.34419406601083e+001dB,1.79857511059638e+002°)
4.78630092322635e+002	(1.34419402230290e+001dB,1.79854192063633e+002°)
4.89778819368443e+002	(1.34419397653507e+001dB,1.79850795758121e+002°)
5.01187233627268e+002	(1.34419392861024e+001dB,1.79847320342320e+002°)
5.12861383991361e+002	(1.34419387842677e+001dB,1.79843763973505e+002°)
5.24807460249769e+002	(1.34419382587820e+001dB,1.79840124766022e+002°)
5.37031796370249e+002	(1.34419377085307e+001dB,1.79836400790299e+002°)
5.49540873857620e+002	(1.34419371323466e+001dB,1.79832590071814e+002°)
5.62341325190345e+002	(1.34419365290074e+001dB,1.79828690590053e+002°)
5.75439937337152e+002	(1.34419358972334e+001dB,1.79824700277436e+002°)
